
**** 11/09/20 15:15:59 ****** PSpice Lite (October 2012) ****** ID# 10813 ****

 ** Profile: "SCHEMATIC1-simlab1_2"  [ C:\Users\Demian\Documents\universidad\dispositivos\laboratorios\lab1_2180389_B02\lab1-PSpiceFi


 ****     CIRCUIT DESCRIPTION


******************************************************************************




** Creating circuit file "simlab1_2.cir" 
** WARNING: THIS AUTOMATICALLY GENERATED FILE MAY BE OVERWRITTEN BY SUBSEQUENT SIMULATIONS

*Libraries: 
* Profile Libraries :
* Local Libraries :
.LIB "D:/Lite Small/tools/capture/library/pspice/opamp.lib" 
* From [PSPICE NETLIST] section of C:\SPB_DATA\cdssetup\OrCAD_PSpice/16.6.0/PSpice.ini file:
.lib "nomd.lib" 

*Analysis directives: 
.TRAN  0 3ms 0 10u 
.OPTIONS ADVCONV
.PROBE64 V(alias(*)) I(alias(*)) W(alias(*)) D(alias(*)) NOISE(alias(*)) 
.INC "..\SCHEMATIC1.net" 



**** INCLUDING SCHEMATIC1.net ****
* source LAB1
X_U1         0 N14485 VCC VEE VOUT OP-27
R_R1         VIN N14485  10k TC=0,0 
R_R2         N14485 VOUT  100k TC=0,0 
V_V1         VIN 0  AC 0
+SIN 120m 180mv 1k 0 0 0
V_V2         VCC 0 10Vdc
V_V3         0 VEE 10Vdc
R_R3         0 N15923  10k TC=0,0 
X_U2         VIN2 N15923 VCC VEE VOUT2 OP-27
V_V4         VIN2 0  AC 0
+SIN 120m 180mv 1k 0 0 0
R_R4         N15923 VOUT2  100k TC=0,0 

**** RESUMING simlab1_2.cir ****
.END

**** 11/09/20 15:15:59 ****** PSpice Lite (October 2012) ****** ID# 10813 ****

 ** Profile: "SCHEMATIC1-simlab1_2"  [ C:\Users\Demian\Documents\universidad\dispositivos\laboratorios\lab1_2180389_B02\lab1-PSpiceFi


 ****     Diode MODEL PARAMETERS


******************************************************************************




               X_U1.dx         X_U1.dy         X_U2.dx         X_U2.dy         
          IS  800.000000E-18  800.000000E-18  800.000000E-18  800.000000E-18 
          RS    1               1.000000E-03    1               1.000000E-03 
         CJO                   10.000000E-12                   10.000000E-12 


**** 11/09/20 15:15:59 ****** PSpice Lite (October 2012) ****** ID# 10813 ****

 ** Profile: "SCHEMATIC1-simlab1_2"  [ C:\Users\Demian\Documents\universidad\dispositivos\laboratorios\lab1_2180389_B02\lab1-PSpiceFi


 ****     BJT MODEL PARAMETERS


******************************************************************************




               X_U1.qx         X_U2.qx         
               NPN             NPN             
       LEVEL    1               1            
          IS  800.000000E-18  800.000000E-18 
          BF    4.200000E+03    4.200000E+03 
          NF    1               1            
          BR    1               1            
          NR    1               1            
         ISS    0               0            
          RE    0               0            
          RC    0               0            
         CJE    0               0            
         VJE     .75             .75         
         CJC    0               0            
         VJC     .75             .75         
         MJC     .33             .33         
        XCJC    1               1            
         CJS    0               0            
         VJS     .75             .75         
          KF    0               0            
          AF    1               1            
          CN    2.42            2.42         
           D     .87             .87         


**** 11/09/20 15:15:59 ****** PSpice Lite (October 2012) ****** ID# 10813 ****

 ** Profile: "SCHEMATIC1-simlab1_2"  [ C:\Users\Demian\Documents\universidad\dispositivos\laboratorios\lab1_2180389_B02\lab1-PSpiceFi


 ****     INITIAL TRANSIENT SOLUTION       TEMPERATURE =   27.000 DEG C


******************************************************************************



 NODE   VOLTAGE     NODE   VOLTAGE     NODE   VOLTAGE     NODE   VOLTAGE


(  VCC)   10.0000  (  VEE)  -10.0000  (  VIN)     .1200  ( VIN2)     .1200      

( VOUT)   -1.1990  (VOUT2)    1.3210  (N14485) 990.6E-09 (N15923)     .1200     

(X_U1.6) 100.5E-06 (X_U1.7)   -1.1995 (X_U1.8)   -1.1995 (X_U1.9)    0.0000     

(X_U2.6)-110.8E-06 (X_U2.7)    1.3215 (X_U2.8)    1.3215 (X_U2.9)    0.0000     

(X_U1.10)    -.6403                   (X_U1.11)    9.9722                       

(X_U1.12)    9.9722                   (X_U1.13)    -.6384                       

(X_U1.14)    -.6384                   (X_U1.53)    8.8000                       

(X_U1.54)   -8.8000                   (X_U1.90)    -.0120                       

(X_U1.91)   40.0000                   (X_U1.92)  -40.0000                       

(X_U1.99)    0.0000                   (X_U2.10)    -.5203                       

(X_U2.11)    9.9722                   (X_U2.12)    9.9722                       

(X_U2.13)    -.5184                   (X_U2.14)    -.5184                       

(X_U2.53)    8.8000                   (X_U2.54)   -8.8000                       

(X_U2.90)     .0120                   (X_U2.91)   40.0000                       

(X_U2.92)  -40.0000                   (X_U2.99)    0.0000                   




    VOLTAGE SOURCE CURRENTS
    NAME         CURRENT

    V_V1        -1.200E-05
    V_V2        -4.500E-03
    V_V3        -4.500E-03
    V_V4        -9.964E-09
    X_U1.vb      1.005E-09
    X_U1.vc      1.000E-11
    X_U1.ve      7.896E-12
    X_U1.vlim   -1.199E-05
    X_U1.vlp    -4.001E-11
    X_U1.vln    -3.999E-11
    X_U2.vb     -1.108E-09
    X_U2.vc      7.480E-12
    X_U2.ve      1.042E-11
    X_U2.vlim    1.201E-05
    X_U2.vlp    -3.999E-11
    X_U2.vln    -4.002E-11

    TOTAL POWER DISSIPATION   9.00E-02  WATTS



          JOB CONCLUDED

**** 11/09/20 15:15:59 ****** PSpice Lite (October 2012) ****** ID# 10813 ****

 ** Profile: "SCHEMATIC1-simlab1_2"  [ C:\Users\Demian\Documents\universidad\dispositivos\laboratorios\lab1_2180389_B02\lab1-PSpiceFi


 ****     JOB STATISTICS SUMMARY


******************************************************************************



  Total job time (using Solver 1)   =         .09
